
T1B24 000:282 SEGGER J-Link V5.12e Log File (0008ms, 0271ms total)
T1B24 000:282 DLL Compiled: Apr 29 2016 15:03:58 (0008ms, 0271ms total)
T1B24 000:282 Logging started @ 2017-11-23 17:56 (0008ms, 0271ms total)
T1B24 000:290 JLINK_SetWarnOutHandler(...) (0000ms, 0271ms total)
T1B24 000:291 JLINK_OpenEx(...)
Firmware: J-Link ARM V8 compiled Jan 31 2018 18:34:52
Hardware: V8.00
S/N: 20080643
Feature(s): RDI,FlashDL,FlashBP,JFlash,GDBFull  returns O.K. (0264ms, 0535ms total)
T1B24 000:555 JLINK_SetErrorOutHandler(...) (0000ms, 0535ms total)
T1B24 000:555 JLINK_ExecCommand("ProjectFile = "G:\Master\Match\Formula Racing\17电气组资料\17FSAE_Program\ECU1_Program\CSU_FSAE_ECU1_407\MDK-ARM\JLinkSettings.ini"", ...)  returns 0x00 (0001ms, 0536ms total)
T1B24 000:565 JLINK_ExecCommand("Device = STM32F407ZGTx", ...)Device "STM32F407ZG" selected.  returns 0x00 (0017ms, 0553ms total)
T1B24 000:582 JLINK_ExecCommand("DisableConnectionTimeout", ...)  returns 0x01 (0000ms, 0553ms total)
T1B24 000:582 JLINK_GetHardwareVersion()  returns 0x13880 (0000ms, 0553ms total)
T1B24 000:582 JLINK_GetDLLVersion()  returns 51205 (0001ms, 0554ms total)
T1B24 000:583 JLINK_GetFirmwareString(...) (0000ms, 0554ms total)
T1B24 000:615 JLINK_GetDLLVersion()  returns 51205 (0000ms, 0554ms total)
T1B24 000:615 JLINK_GetCompileDateTime() (0000ms, 0554ms total)
T1B24 000:620 JLINK_GetFirmwareString(...) (0000ms, 0554ms total)
T1B24 000:625 JLINK_GetHardwareVersion()  returns 0x13880 (0000ms, 0554ms total)
T1B24 000:644 JLINK_TIF_Select(JLINKARM_TIF_SWD)  returns 0x00 (0001ms, 0555ms total)
T1B24 000:645 JLINK_SetSpeed(500) (0000ms, 0555ms total)
T1B24 000:645 JLINK_GetId() >0x108 TIF>Found SWD-DP with ID 0x2BA01477 >0x0D TIF> >0x28 TIF> >0x0D TIF> >0x28 TIF> >0x0D TIF> >0x28 TIF> >0x0D TIF> >0x28 TIF> >0x0D TIF> >0x21 TIF> >0x0D TIF> >0x28 TIF> >0x0D TIF> >0x28 TIF> >0x0D TIF> >0x28 TIF> >0x0D TIF> >0x21 TIF> >0x0D TIF> >0x21 TIF> >0x0D TIF> >0x28 TIF> >0x0D TIF> >0x21 TIF> >0x0D TIF> >0x21 TIF> >0x0D TIF> >0x28 TIF> >0x0D TIF> >0x21 TIF> >0x0D TIF> >0x21 TIF> >0x0D TIF> >0x28 TIF> >0x0D TIF> >0x21 TIF> >0x0D TIF> >0x21 TIF> >0x0D TIF>
 >0x28 TIF> >0x0D TIF> >0x21 TIF> >0x0D TIF> >0x21 TIF> >0x0D TIF> >0x28 TIF> >0x0D TIF> >0x21 TIF> >0x0D TIF> >0x21 TIF> >0x108 TIF>Found SWD-DP with ID 0x2BA01477 >0x0D TIF> >0x28 TIF> >0x0D TIF> >0x28 TIF> >0x0D TIF> >0x28 TIF> >0x0D TIF> >0x28 TIF> >0x0D TIF> >0x21 TIF> >0x0D TIF> >0x28 TIF> >0x0D TIF> >0x28 TIF> >0x0D TIF> >0x21 TIF> >0x0D TIF> >0x21 TIF> >0x0D TIF> >0x21 TIF> >0x0D TIF> >0x28 TIF> >0x0D TIF> >0x28 TIF> >0x0D TIF> >0x28 TIF> >0x0D TIF> >0x21 TIF> >0x0D TIF> >0x21 TIF> >0x0D TIF>
 >0x28 TIF> >0x0D TIF> >0x21 TIF> >0x0D TIF> >0x21 TIF>Found Cortex-M4 r0p1, Little endian. >0x0D TIF> >0x28 TIF> -- CPU_ReadMem(4 bytes @ 0xE000EDF0) -- CPU_ReadMem(4 bytes @ 0xE0002000)FPUnit: 6 code (BP) slots and 2 literal slots -- CPU_ReadMem(4 bytes @ 0xE000EDFC) -- CPU_ReadMem(4 bytes @ 0xE0001000) -- CPU_WriteMem(4 bytes @ 0xE0001000) -- CPU_ReadMem(4 bytes @ 0xE000ED88) -- CPU_WriteMem(4 bytes @ 0xE000ED88) -- CPU_ReadMem(4 bytes @ 0xE000ED88) -- CPU_WriteMem(4 bytes @ 0xE000ED88)
CoreSight components:ROMTbl 0 @ E00FF000 -- CPU_ReadMem(16 bytes @ 0xE00FF000) -- CPU_ReadMem(16 bytes @ 0xE000EFF0) -- CPU_ReadMem(16 bytes @ 0xE000EFE0)ROMTbl 0 [0]: FFF0F000, CID: B105E00D, PID: 000BB00C SCS -- CPU_ReadMem(16 bytes @ 0xE0001FF0) -- CPU_ReadMem(16 bytes @ 0xE0001FE0)ROMTbl 0 [1]: FFF02000, CID: B105E00D, PID: 003BB002 DWT -- CPU_ReadMem(16 bytes @ 0xE0002FF0) -- CPU_ReadMem(16 bytes @ 0xE0002FE0)ROMTbl 0 [2]: FFF03000, CID: B105E00D, PID: 002BB003 FPB
 -- CPU_ReadMem(16 bytes @ 0xE0000FF0) -- CPU_ReadMem(16 bytes @ 0xE0000FE0)ROMTbl 0 [3]: FFF01000, CID: B105E00D, PID: 003BB001 ITM -- CPU_ReadMem(16 bytes @ 0xE00FF010) -- CPU_ReadMem(16 bytes @ 0xE0040FF0) -- CPU_ReadMem(16 bytes @ 0xE0040FE0)ROMTbl 0 [4]: FFF41000, CID: B105900D, PID: 000BB9A1 TPIU -- CPU_ReadMem(16 bytes @ 0xE0041FF0) -- CPU_ReadMem(16 bytes @ 0xE0041FE0)ROMTbl 0 [5]: FFF42000, CID: B105900D, PID: 000BB925 ETM >0x0D TIF> >0x21 TIF>  returns 0x2BA01477 (0148ms, 0703ms total)
T1B24 000:794 JLINK_GetDLLVersion()  returns 51205 (0000ms, 0704ms total)
T1B24 000:794 JLINK_CORE_GetFound()  returns 0xE0000FF (0000ms, 0704ms total)
T1B24 000:794 JLINK_GetDebugInfo(0x100) -- Value=0xE00FF000  returns 0x00 (0000ms, 0704ms total)
T1B24 000:806 JLINK_GetDebugInfo(0x100) -- Value=0xE00FF000  returns 0x00 (0000ms, 0704ms total)
T1B24 000:806 JLINK_GetDebugInfo(0x101) -- Value=0xE0041000  returns 0x00 (0000ms, 0704ms total)
T1B24 000:806 JLINK_GetDebugInfo(0x102) -- Value=0x00000000  returns 0x00 (0000ms, 0704ms total)
T1B24 000:806 JLINK_GetDebugInfo(0x103) -- Value=0xE0040000  returns 0x00 (0000ms, 0704ms total)
T1B24 000:806 JLINK_GetDebugInfo(0x104) -- Value=0xE0000000  returns 0x00 (0000ms, 0704ms total)
T1B24 000:806 JLINK_GetDebugInfo(0x105) -- Value=0xE0001000  returns 0x00 (0000ms, 0704ms total)
T1B24 000:806 JLINK_GetDebugInfo(0x106) -- Value=0xE0002000  returns 0x00 (0000ms, 0704ms total)
T1B24 000:806 JLINK_GetDebugInfo(0x107) -- Value=0xE000E000  returns 0x00 (0000ms, 0704ms total)
T1B24 000:806 JLINK_GetDebugInfo(0x10C) -- Value=0xE000EDF0  returns 0x00 (0000ms, 0704ms total)
T1B24 000:806 JLINK_ReadMemU32(0xE000EF40, 0x0001 Items, ...) -- CPU is running -- CPU_ReadMem(4 bytes @ 0xE000EF40) - Data: 21 00 11 10  returns 0x01 (0001ms, 0705ms total)
T1B24 000:807 JLINK_ReadMemU32(0xE000EF44, 0x0001 Items, ...) -- CPU is running -- CPU_ReadMem(4 bytes @ 0xE000EF44) - Data: 11 00 00 11  returns 0x01 (0002ms, 0707ms total)
T1B24 000:809 JLINK_ReadMemU32(0xE000ED00, 0x0001 Items, ...) -- CPU is running -- CPU_ReadMem(4 bytes @ 0xE000ED00) - Data: 41 C2 0F 41  returns 0x01 (0001ms, 0708ms total)
T1B24 000:810 JLINK_SetResetType(JLINKARM_RESET_TYPE_NORMAL)  returns JLINKARM_RESET_TYPE_NORMAL (0000ms, 0708ms total)
T1B24 000:810 JLINK_Reset() -- CPU_WriteMem(4 bytes @ 0xE0002000) -- CPU_ReadMem(4 bytes @ 0xE000EDFC) -- CPU_WriteMem(4 bytes @ 0xE000EDFC) -- CPU_ReadMem(4 bytes @ 0xE0001000) (0026ms, 0734ms total)
T1B24 000:836 JLINK_Halt()  returns 0x00 (0000ms, 0734ms total)
T1B24 000:836 JLINK_IsHalted()  returns TRUE (0000ms, 0734ms total)
T1B24 000:836 JLINK_ReadMemU32(0xE000EDF0, 0x0001 Items, ...) -- CPU_ReadMem(4 bytes @ 0xE000EDF0) - Data: 03 00 03 00  returns 0x01 (0001ms, 0735ms total)
T1B24 000:837 JLINK_WriteU32(0xE000EDF0, 0xA05F0003) -- CPU_WriteMem(4 bytes @ 0xE000EDF0)  returns 0x00 (0001ms, 0736ms total)
T1B24 000:838 JLINK_WriteU32(0xE000EDFC, 0x01000000) -- CPU_WriteMem(4 bytes @ 0xE000EDFC)  returns 0x00 (0001ms, 0737ms total)
T1B24 000:869 JLINK_GetHWStatus(...)  returns 0x00 (0000ms, 0737ms total)
T1B24 000:886 JLINK_GetNumBPUnits(Type = 0xFFFFFF00)  returns 0x06 (0000ms, 0738ms total)
T1B24 000:886 JLINK_GetNumBPUnits(Type = 0xF0)  returns 0x2000 (0000ms, 0738ms total)
T1B24 000:886 JLINK_GetNumWPUnits()  returns 0x04 (0000ms, 0738ms total)
T1B24 000:904 JLINK_GetSpeed()  returns 0x1F4 (0000ms, 0738ms total)
T1B24 000:917 JLINK_ReadMemU32(0xE000E004, 0x0001 Items, ...) -- CPU_ReadMem(4 bytes @ 0xE000E004) - Data: 02 00 00 00  returns 0x01 (0002ms, 0740ms total)
T1B24 000:919 JLINK_ReadMemU32(0xE000E004, 0x0001 Items, ...) -- CPU_ReadMem(4 bytes @ 0xE000E004) - Data: 02 00 00 00  returns 0x01 (0001ms, 0741ms total)
T1B24 000:920 JLINK_WriteMem(0xE0001000, 0x001C Bytes, ...) - Data: 01 00 00 00 00 00 00 00 00 00 00 00 00 00 00 00 ... -- CPU_WriteMem(28 bytes @ 0xE0001000)  returns 0x1C (0003ms, 0744ms total)
T1B24 000:923 JLINK_ReadMem (0xE0001000, 0x001C Bytes, ...) -- CPU_ReadMem(28 bytes @ 0xE0001000) - Data: 01 00 00 40 00 00 00 00 00 00 00 00 00 00 00 00 ...  returns 0x00 (0002ms, 0746ms total)
T1B24 000:925 JLINK_Halt()  returns 0x00 (0001ms, 0747ms total)
T1B24 000:926 JLINK_IsHalted()  returns TRUE (0000ms, 0747ms total)
T1B24 000:931 JLINK_WriteMem(0x20000000, 0x0180 Bytes, ...) - Data: 00 BE 0A E0 0D 78 2D 06 68 40 08 24 40 00 00 D3 ... -- CPU_WriteMem(384 bytes @ 0x20000000)  returns 0x180 (0014ms, 0761ms total)
T1B24 000:945 JLINK_WriteReg(R0, 0x08000000)  returns 0x00 (0000ms, 0761ms total)
T1B24 000:945 JLINK_WriteReg(R1, 0x0A037A00)  returns 0x00 (0000ms, 0761ms total)
T1B24 000:945 JLINK_WriteReg(R2, 0x00000001)  returns 0x00 (0000ms, 0761ms total)
T1B24 000:945 JLINK_WriteReg(R3, 0x00000000)  returns 0x00 (0000ms, 0761ms total)
T1B24 000:945 JLINK_WriteReg(R4, 0x00000000)  returns 0x00 (0000ms, 0761ms total)
T1B24 000:945 JLINK_WriteReg(R5, 0x00000000)  returns 0x00 (0000ms, 0761ms total)
T1B24 000:945 JLINK_WriteReg(R6, 0x00000000)  returns 0x00 (0001ms, 0762ms total)
T1B24 000:946 JLINK_WriteReg(R7, 0x00000000)  returns 0x00 (0000ms, 0762ms total)
T1B24 000:946 JLINK_WriteReg(R8, 0x00000000)  returns 0x00 (0000ms, 0762ms total)
T1B24 000:946 JLINK_WriteReg(R9, 0x2000017C)  returns 0x00 (0000ms, 0762ms total)
T1B24 000:946 JLINK_WriteReg(R10, 0x00000000)  returns 0x00 (0000ms, 0762ms total)
T1B24 000:946 JLINK_WriteReg(R11, 0x00000000)  returns 0x00 (0000ms, 0762ms total)
T1B24 000:946 JLINK_WriteReg(R12, 0x00000000)  returns 0x00 (0000ms, 0762ms total)
T1B24 000:946 JLINK_WriteReg(R13 (SP), 0x20001000)  returns 0x00 (0000ms, 0762ms total)
T1B24 000:946 JLINK_WriteReg(R14, 0x20000001)  returns 0x00 (0000ms, 0762ms total)
T1B24 000:946 JLINK_WriteReg(R15 (PC), 0x20000054)  returns 0x00 (0000ms, 0762ms total)
T1B24 000:946 JLINK_WriteReg(XPSR, 0x01000000)  returns 0x00 (0000ms, 0762ms total)
T1B24 000:946 JLINK_WriteReg(MSP, 0x20001000)  returns 0x00 (0000ms, 0762ms total)
T1B24 000:946 JLINK_WriteReg(PSP, 0x20001000)  returns 0x00 (0000ms, 0762ms total)
T1B24 000:946 JLINK_WriteReg(CFBP, 0x00000000)  returns 0x00 (0000ms, 0762ms total)
T1B24 000:946 JLINK_SetBPEx(Addr = 0x20000000, Type = 0xFFFFFFF2) -- CPU_ReadMem(2 bytes @ 0x20000000)  returns 0x00000001 (0002ms, 0764ms total)
T1B24 000:948 JLINK_Go() -- CPU_WriteMem(2 bytes @ 0x20000000) -- CPU_ReadMem(4 bytes @ 0xE0001000) -- CPU_WriteMem(4 bytes @ 0xE0002008) -- CPU_WriteMem(4 bytes @ 0xE000200C) -- CPU_WriteMem(4 bytes @ 0xE0002010) -- CPU_WriteMem(4 bytes @ 0xE0002014) -- CPU_WriteMem(4 bytes @ 0xE0002018) -- CPU_WriteMem(4 bytes @ 0xE000201C) -- CPU_WriteMem(4 bytes @ 0xE0001004) (0012ms, 0776ms total)
T1B24 000:961 JLINK_IsHalted() -- CPU_ReadMem(2 bytes @ 0x20000000)  returns TRUE (0009ms, 0786ms total)
T1B24 000:970 JLINK_ReadReg(R15 (PC))  returns 0x20000000 (0000ms, 0777ms total)
T1B24 000:970 JLINK_ClrBPEx(BPHandle = 0x00000001)  returns 0x00 (0000ms, 0777ms total)
T1B24 000:970 JLINK_ReadReg(R0)  returns 0x00000000 (0000ms, 0777ms total)
T1B24 000:971 JLINK_WriteReg(R0, 0x08000000)  returns 0x00 (0000ms, 0777ms total)
T1B24 000:971 JLINK_WriteReg(R1, 0x00004000)  returns 0x00 (0000ms, 0777ms total)
T1B24 000:971 JLINK_WriteReg(R2, 0x000000FF)  returns 0x00 (0000ms, 0777ms total)
T1B24 000:971 JLINK_WriteReg(R3, 0x00000000)  returns 0x00 (0000ms, 0777ms total)
T1B24 000:971 JLINK_WriteReg(R4, 0x00000000)  returns 0x00 (0000ms, 0777ms total)
T1B24 000:972 JLINK_WriteReg(R5, 0x00000000)  returns 0x00 (0000ms, 0778ms total)
T1B24 000:972 JLINK_WriteReg(R6, 0x00000000)  returns 0x00 (0000ms, 0778ms total)
T1B24 000:972 JLINK_WriteReg(R7, 0x00000000)  returns 0x00 (0000ms, 0778ms total)
T1B24 000:972 JLINK_WriteReg(R8, 0x00000000)  returns 0x00 (0000ms, 0778ms total)
T1B24 000:972 JLINK_WriteReg(R9, 0x2000017C)  returns 0x00 (0000ms, 0778ms total)
T1B24 000:972 JLINK_WriteReg(R10, 0x00000000)  returns 0x00 (0000ms, 0778ms total)
T1B24 000:972 JLINK_WriteReg(R11, 0x00000000)  returns 0x00 (0000ms, 0778ms total)
T1B24 000:972 JLINK_WriteReg(R12, 0x00000000)  returns 0x00 (0000ms, 0778ms total)
T1B24 000:972 JLINK_WriteReg(R13 (SP), 0x20001000)  returns 0x00 (0000ms, 0778ms total)
T1B24 000:972 JLINK_WriteReg(R14, 0x20000001)  returns 0x00 (0000ms, 0778ms total)
T1B24 000:972 JLINK_WriteReg(R15 (PC), 0x20000020)  returns 0x00 (0000ms, 0778ms total)
T1B24 000:972 JLINK_WriteReg(XPSR, 0x01000000)  returns 0x00 (0000ms, 0778ms total)
T1B24 000:972 JLINK_WriteReg(MSP, 0x20001000)  returns 0x00 (0000ms, 0778ms total)
T1B24 000:972 JLINK_WriteReg(PSP, 0x20001000)  returns 0x00 (0000ms, 0778ms total)
T1B24 000:972 JLINK_WriteReg(CFBP, 0x00000000)  returns 0x00 (0000ms, 0778ms total)
T1B24 000:972 JLINK_SetBPEx(Addr = 0x20000000, Type = 0xFFFFFFF2)  returns 0x00000002 (0000ms, 0778ms total)
T1B24 000:972 JLINK_Go() -- CPU_ReadMem(4 bytes @ 0xE0001000) (0005ms, 0783ms total)
T1B24 000:977 JLINK_IsHalted()  returns FALSE (0001ms, 0784ms total)
T1B24 001:093 JLINK_IsHalted() -- CPU_ReadMem(2 bytes @ 0x20000000)  returns TRUE (0009ms, 0792ms total)
T1B24 001:102 JLINK_ReadReg(R15 (PC))  returns 0x20000000 (0000ms, 0783ms total)
T1B24 001:102 JLINK_ClrBPEx(BPHandle = 0x00000002)  returns 0x00 (0000ms, 0783ms total)
T1B24 001:102 JLINK_ReadReg(R0)  returns 0x00000000 (0000ms, 0783ms total)
T1B24 001:103 JLINK_WriteReg(R0, 0x08004000)  returns 0x00 (0000ms, 0783ms total)
T1B24 001:103 JLINK_WriteReg(R1, 0x00004000)  returns 0x00 (0000ms, 0783ms total)
T1B24 001:103 JLINK_WriteReg(R2, 0x000000FF)  returns 0x00 (0000ms, 0783ms total)
T1B24 001:103 JLINK_WriteReg(R3, 0x00000000)  returns 0x00 (0000ms, 0783ms total)
T1B24 001:103 JLINK_WriteReg(R4, 0x00000000)  returns 0x00 (0000ms, 0783ms total)
T1B24 001:103 JLINK_WriteReg(R5, 0x00000000)  returns 0x00 (0000ms, 0783ms total)
T1B24 001:103 JLINK_WriteReg(R6, 0x00000000)  returns 0x00 (0000ms, 0783ms total)
T1B24 001:103 JLINK_WriteReg(R7, 0x00000000)  returns 0x00 (0000ms, 0783ms total)
T1B24 001:103 JLINK_WriteReg(R8, 0x00000000)  returns 0x00 (0000ms, 0783ms total)
T1B24 001:103 JLINK_WriteReg(R9, 0x2000017C)  returns 0x00 (0000ms, 0783ms total)
T1B24 001:103 JLINK_WriteReg(R10, 0x00000000)  returns 0x00 (0000ms, 0783ms total)
T1B24 001:103 JLINK_WriteReg(R11, 0x00000000)  returns 0x00 (0000ms, 0783ms total)
T1B24 001:103 JLINK_WriteReg(R12, 0x00000000)  returns 0x00 (0000ms, 0783ms total)
T1B24 001:103 JLINK_WriteReg(R13 (SP), 0x20001000)  returns 0x00 (0000ms, 0783ms total)
T1B24 001:103 JLINK_WriteReg(R14, 0x20000001)  returns 0x00 (0001ms, 0784ms total)
T1B24 001:104 JLINK_WriteReg(R15 (PC), 0x20000020)  returns 0x00 (0000ms, 0784ms total)
T1B24 001:104 JLINK_WriteReg(XPSR, 0x01000000)  returns 0x00 (0000ms, 0784ms total)
T1B24 001:104 JLINK_WriteReg(MSP, 0x20001000)  returns 0x00 (0000ms, 0784ms total)
T1B24 001:104 JLINK_WriteReg(PSP, 0x20001000)  returns 0x00 (0000ms, 0784ms total)
T1B24 001:104 JLINK_WriteReg(CFBP, 0x00000000)  returns 0x00 (0000ms, 0784ms total)
T1B24 001:104 JLINK_SetBPEx(Addr = 0x20000000, Type = 0xFFFFFFF2)  returns 0x00000003 (0000ms, 0784ms total)
T1B24 001:104 JLINK_Go() -- CPU_ReadMem(4 bytes @ 0xE0001000) (0004ms, 0788ms total)
T1B24 001:108 JLINK_IsHalted()  returns FALSE (0001ms, 0789ms total)
T1B24 001:111 JLINK_IsHalted()  returns FALSE (0001ms, 0789ms total)
T1B24 001:115 JLINK_IsHalted()  returns FALSE (0001ms, 0789ms total)
T1B24 001:118 JLINK_IsHalted()  returns FALSE (0000ms, 0788ms total)
T1B24 001:120 JLINK_IsHalted()  returns FALSE (0000ms, 0788ms total)
T1B24 001:123 JLINK_IsHalted() -- CPU_ReadMem(2 bytes @ 0x20000000)  returns TRUE (0010ms, 0798ms total)
T1B24 001:133 JLINK_ReadReg(R15 (PC))  returns 0x20000000 (0000ms, 0788ms total)
T1B24 001:133 JLINK_ClrBPEx(BPHandle = 0x00000003)  returns 0x00 (0000ms, 0788ms total)
T1B24 001:133 JLINK_ReadReg(R0)  returns 0x00000000 (0000ms, 0788ms total)
T1B24 001:133 JLINK_WriteReg(R0, 0x08008000)  returns 0x00 (0000ms, 0788ms total)
T1B24 001:133 JLINK_WriteReg(R1, 0x00004000)  returns 0x00 (0000ms, 0788ms total)
T1B24 001:133 JLINK_WriteReg(R2, 0x000000FF)  returns 0x00 (0000ms, 0788ms total)
T1B24 001:133 JLINK_WriteReg(R3, 0x00000000)  returns 0x00 (0000ms, 0788ms total)
T1B24 001:133 JLINK_WriteReg(R4, 0x00000000)  returns 0x00 (0000ms, 0788ms total)
T1B24 001:133 JLINK_WriteReg(R5, 0x00000000)  returns 0x00 (0000ms, 0788ms total)
T1B24 001:133 JLINK_WriteReg(R6, 0x00000000)  returns 0x00 (0000ms, 0788ms total)
T1B24 001:133 JLINK_WriteReg(R7, 0x00000000)  returns 0x00 (0000ms, 0788ms total)
T1B24 001:133 JLINK_WriteReg(R8, 0x00000000)  returns 0x00 (0000ms, 0788ms total)
T1B24 001:133 JLINK_WriteReg(R9, 0x2000017C)  returns 0x00 (0000ms, 0788ms total)
T1B24 001:134 JLINK_WriteReg(R10, 0x00000000)  returns 0x00 (0000ms, 0789ms total)
T1B24 001:134 JLINK_WriteReg(R11, 0x00000000)  returns 0x00 (0000ms, 0789ms total)
T1B24 001:134 JLINK_WriteReg(R12, 0x00000000)  returns 0x00 (0000ms, 0789ms total)
T1B24 001:134 JLINK_WriteReg(R13 (SP), 0x20001000)  returns 0x00 (0000ms, 0789ms total)
T1B24 001:134 JLINK_WriteReg(R14, 0x20000001)  returns 0x00 (0000ms, 0789ms total)
T1B24 001:134 JLINK_WriteReg(R15 (PC), 0x20000020)  returns 0x00 (0000ms, 0789ms total)
T1B24 001:134 JLINK_WriteReg(XPSR, 0x01000000)  returns 0x00 (0000ms, 0789ms total)
T1B24 001:134 JLINK_WriteReg(MSP, 0x20001000)  returns 0x00 (0000ms, 0789ms total)
T1B24 001:134 JLINK_WriteReg(PSP, 0x20001000)  returns 0x00 (0000ms, 0789ms total)
T1B24 001:134 JLINK_WriteReg(CFBP, 0x00000000)  returns 0x00 (0000ms, 0789ms total)
T1B24 001:134 JLINK_SetBPEx(Addr = 0x20000000, Type = 0xFFFFFFF2)  returns 0x00000004 (0000ms, 0789ms total)
T1B24 001:134 JLINK_Go() -- CPU_ReadMem(4 bytes @ 0xE0001000) (0005ms, 0794ms total)
T1B24 001:139 JLINK_IsHalted()  returns FALSE (0001ms, 0795ms total)
T1B24 001:142 JLINK_IsHalted()  returns FALSE (0001ms, 0795ms total)
T1B24 001:145 JLINK_IsHalted()  returns FALSE (0001ms, 0795ms total)
T1B24 001:148 JLINK_IsHalted()  returns FALSE (0001ms, 0795ms total)
T1B24 001:151 JLINK_IsHalted()  returns FALSE (0001ms, 0795ms total)
T1B24 001:154 JLINK_IsHalted() -- CPU_ReadMem(2 bytes @ 0x20000000)  returns TRUE (0009ms, 0803ms total)
T1B24 001:163 JLINK_ReadReg(R15 (PC))  returns 0x20000000 (0000ms, 0794ms total)
T1B24 001:163 JLINK_ClrBPEx(BPHandle = 0x00000004)  returns 0x00 (0000ms, 0794ms total)
T1B24 001:163 JLINK_ReadReg(R0)  returns 0x00000000 (0000ms, 0794ms total)
T1B24 001:166 JLINK_WriteReg(R0, 0x0800C000)  returns 0x00 (0000ms, 0794ms total)
T1B24 001:166 JLINK_WriteReg(R1, 0x00004000)  returns 0x00 (0000ms, 0794ms total)
T1B24 001:166 JLINK_WriteReg(R2, 0x000000FF)  returns 0x00 (0000ms, 0794ms total)
T1B24 001:166 JLINK_WriteReg(R3, 0x00000000)  returns 0x00 (0000ms, 0794ms total)
T1B24 001:166 JLINK_WriteReg(R4, 0x00000000)  returns 0x00 (0000ms, 0794ms total)
T1B24 001:166 JLINK_WriteReg(R5, 0x00000000)  returns 0x00 (0000ms, 0794ms total)
T1B24 001:166 JLINK_WriteReg(R6, 0x00000000)  returns 0x00 (0000ms, 0794ms total)
T1B24 001:166 JLINK_WriteReg(R7, 0x00000000)  returns 0x00 (0000ms, 0794ms total)
T1B24 001:166 JLINK_WriteReg(R8, 0x00000000)  returns 0x00 (0000ms, 0794ms total)
T1B24 001:166 JLINK_WriteReg(R9, 0x2000017C)  returns 0x00 (0000ms, 0794ms total)
T1B24 001:166 JLINK_WriteReg(R10, 0x00000000)  returns 0x00 (0000ms, 0794ms total)
T1B24 001:166 JLINK_WriteReg(R11, 0x00000000)  returns 0x00 (0000ms, 0794ms total)
T1B24 001:166 JLINK_WriteReg(R12, 0x00000000)  returns 0x00 (0000ms, 0794ms total)
T1B24 001:166 JLINK_WriteReg(R13 (SP), 0x20001000)  returns 0x00 (0000ms, 0794ms total)
T1B24 001:166 JLINK_WriteReg(R14, 0x20000001)  returns 0x00 (0000ms, 0794ms total)
T1B24 001:166 JLINK_WriteReg(R15 (PC), 0x20000020)  returns 0x00 (0000ms, 0794ms total)
T1B24 001:166 JLINK_WriteReg(XPSR, 0x01000000)  returns 0x00 (0000ms, 0794ms total)
T1B24 001:166 JLINK_WriteReg(MSP, 0x20001000)  returns 0x00 (0000ms, 0794ms total)
T1B24 001:166 JLINK_WriteReg(PSP, 0x20001000)  returns 0x00 (0000ms, 0794ms total)
T1B24 001:166 JLINK_WriteReg(CFBP, 0x00000000)  returns 0x00 (0000ms, 0794ms total)
T1B24 001:166 JLINK_SetBPEx(Addr = 0x20000000, Type = 0xFFFFFFF2)  returns 0x00000005 (0000ms, 0794ms total)
T1B24 001:166 JLINK_Go() -- CPU_ReadMem(4 bytes @ 0xE0001000) (0005ms, 0799ms total)
T1B24 001:171 JLINK_IsHalted()  returns FALSE (0002ms, 0801ms total)
T1B24 001:175 JLINK_IsHalted()  returns FALSE (0001ms, 0800ms total)
T1B24 001:178 JLINK_IsHalted()  returns FALSE (0001ms, 0800ms total)
T1B24 001:181 JLINK_IsHalted()  returns FALSE (0001ms, 0800ms total)
T1B24 001:183 JLINK_IsHalted()  returns FALSE (0001ms, 0800ms total)
T1B24 001:185 JLINK_IsHalted() -- CPU_ReadMem(2 bytes @ 0x20000000)  returns TRUE (0010ms, 0809ms total)
T1B24 001:195 JLINK_ReadReg(R15 (PC))  returns 0x20000000 (0000ms, 0799ms total)
T1B24 001:195 JLINK_ClrBPEx(BPHandle = 0x00000005)  returns 0x00 (0000ms, 0799ms total)
T1B24 001:195 JLINK_ReadReg(R0)  returns 0x00000000 (0000ms, 0799ms total)
T1B24 001:197 JLINK_WriteReg(R0, 0x08010000)  returns 0x00 (0000ms, 0799ms total)
T1B24 001:197 JLINK_WriteReg(R1, 0x00010000)  returns 0x00 (0000ms, 0799ms total)
T1B24 001:197 JLINK_WriteReg(R2, 0x000000FF)  returns 0x00 (0000ms, 0799ms total)
T1B24 001:197 JLINK_WriteReg(R3, 0x00000000)  returns 0x00 (0000ms, 0799ms total)
T1B24 001:197 JLINK_WriteReg(R4, 0x00000000)  returns 0x00 (0000ms, 0799ms total)
T1B24 001:197 JLINK_WriteReg(R5, 0x00000000)  returns 0x00 (0000ms, 0799ms total)
T1B24 001:197 JLINK_WriteReg(R6, 0x00000000)  returns 0x00 (0000ms, 0799ms total)
T1B24 001:197 JLINK_WriteReg(R7, 0x00000000)  returns 0x00 (0000ms, 0799ms total)
T1B24 001:197 JLINK_WriteReg(R8, 0x00000000)  returns 0x00 (0000ms, 0799ms total)
T1B24 001:197 JLINK_WriteReg(R9, 0x2000017C)  returns 0x00 (0000ms, 0799ms total)
T1B24 001:197 JLINK_WriteReg(R10, 0x00000000)  returns 0x00 (0000ms, 0799ms total)
T1B24 001:197 JLINK_WriteReg(R11, 0x00000000)  returns 0x00 (0000ms, 0799ms total)
T1B24 001:197 JLINK_WriteReg(R12, 0x00000000)  returns 0x00 (0000ms, 0799ms total)
T1B24 001:197 JLINK_WriteReg(R13 (SP), 0x20001000)  returns 0x00 (0000ms, 0799ms total)
T1B24 001:197 JLINK_WriteReg(R14, 0x20000001)  returns 0x00 (0000ms, 0799ms total)
T1B24 001:197 JLINK_WriteReg(R15 (PC), 0x20000020)  returns 0x00 (0000ms, 0799ms total)
T1B24 001:197 JLINK_WriteReg(XPSR, 0x01000000)  returns 0x00 (0000ms, 0799ms total)
T1B24 001:197 JLINK_WriteReg(MSP, 0x20001000)  returns 0x00 (0000ms, 0799ms total)
T1B24 001:197 JLINK_WriteReg(PSP, 0x20001000)  returns 0x00 (0000ms, 0799ms total)
T1B24 001:197 JLINK_WriteReg(CFBP, 0x00000000)  returns 0x00 (0000ms, 0799ms total)
T1B24 001:197 JLINK_SetBPEx(Addr = 0x20000000, Type = 0xFFFFFFF2)  returns 0x00000006 (0000ms, 0799ms total)
T1B24 001:197 JLINK_Go() -- CPU_ReadMem(4 bytes @ 0xE0001000) (0004ms, 0803ms total)
T1B24 001:203 JLINK_IsHalted()  returns FALSE (0001ms, 0804ms total)
T1B24 001:209 JLINK_IsHalted()  returns FALSE (0001ms, 0804ms total)
T1B24 001:212 JLINK_IsHalted()  returns FALSE (0001ms, 0804ms total)
T1B24 001:215 JLINK_IsHalted()  returns FALSE (0000ms, 0803ms total)
T1B24 001:217 JLINK_IsHalted()  returns FALSE (0001ms, 0804ms total)
T1B24 001:223 JLINK_IsHalted()  returns FALSE (0001ms, 0804ms total)
T1B24 001:226 JLINK_IsHalted()  returns FALSE (0001ms, 0804ms total)
T1B24 001:229 JLINK_IsHalted()  returns FALSE (0001ms, 0804ms total)
T1B24 001:232 JLINK_IsHalted()  returns FALSE (0001ms, 0804ms total)
T1B24 001:235 JLINK_IsHalted()  returns FALSE (0001ms, 0804ms total)
T1B24 001:237 JLINK_IsHalted()  returns FALSE (0001ms, 0804ms total)
T1B24 001:240 JLINK_IsHalted()  returns FALSE (0001ms, 0804ms total)
T1B24 001:243 JLINK_IsHalted()  returns FALSE (0001ms, 0804ms total)
T1B24 001:245 JLINK_IsHalted()  returns FALSE (0001ms, 0804ms total)
T1B24 001:249 JLINK_IsHalted()  returns FALSE (0001ms, 0804ms total)
T1B24 001:252 JLINK_IsHalted()  returns FALSE (0001ms, 0804ms total)
T1B24 001:254 JLINK_IsHalted()  returns FALSE (0002ms, 0805ms total)
T1B24 001:258 JLINK_IsHalted()  returns FALSE (0001ms, 0804ms total)
T1B24 001:260 JLINK_IsHalted() -- CPU_ReadMem(2 bytes @ 0x20000000)  returns TRUE (0010ms, 0813ms total)
T1B24 001:270 JLINK_ReadReg(R15 (PC))  returns 0x20000000 (0000ms, 0803ms total)
T1B24 001:270 JLINK_ClrBPEx(BPHandle = 0x00000006)  returns 0x00 (0000ms, 0803ms total)
T1B24 001:270 JLINK_ReadReg(R0)  returns 0x00000000 (0000ms, 0803ms total)
T1B24 001:272 JLINK_WriteReg(R0, 0x00000001)  returns 0x00 (0000ms, 0803ms total)
T1B24 001:272 JLINK_WriteReg(R1, 0x00010000)  returns 0x00 (0000ms, 0803ms total)
T1B24 001:272 JLINK_WriteReg(R2, 0x000000FF)  returns 0x00 (0000ms, 0803ms total)
T1B24 001:272 JLINK_WriteReg(R3, 0x00000000)  returns 0x00 (0000ms, 0803ms total)
T1B24 001:272 JLINK_WriteReg(R4, 0x00000000)  returns 0x00 (0000ms, 0803ms total)
T1B24 001:272 JLINK_WriteReg(R5, 0x00000000)  returns 0x00 (0000ms, 0803ms total)
T1B24 001:272 JLINK_WriteReg(R6, 0x00000000)  returns 0x00 (0000ms, 0803ms total)
T1B24 001:272 JLINK_WriteReg(R7, 0x00000000)  returns 0x00 (0000ms, 0803ms total)
T1B24 001:272 JLINK_WriteReg(R8, 0x00000000)  returns 0x00 (0000ms, 0803ms total)
T1B24 001:272 JLINK_WriteReg(R9, 0x2000017C)  returns 0x00 (0000ms, 0803ms total)
T1B24 001:272 JLINK_WriteReg(R10, 0x00000000)  returns 0x00 (0000ms, 0803ms total)
T1B24 001:272 JLINK_WriteReg(R11, 0x00000000)  returns 0x00 (0000ms, 0803ms total)
T1B24 001:272 JLINK_WriteReg(R12, 0x00000000)  returns 0x00 (0000ms, 0803ms total)
T1B24 001:272 JLINK_WriteReg(R13 (SP), 0x20001000)  returns 0x00 (0001ms, 0804ms total)
T1B24 001:273 JLINK_WriteReg(R14, 0x20000001)  returns 0x00 (0000ms, 0804ms total)
T1B24 001:273 JLINK_WriteReg(R15 (PC), 0x20000082)  returns 0x00 (0000ms, 0804ms total)
T1B24 001:273 JLINK_WriteReg(XPSR, 0x01000000)  returns 0x00 (0000ms, 0804ms total)
T1B24 001:273 JLINK_WriteReg(MSP, 0x20001000)  returns 0x00 (0000ms, 0804ms total)
T1B24 001:273 JLINK_WriteReg(PSP, 0x20001000)  returns 0x00 (0000ms, 0804ms total)
T1B24 001:273 JLINK_WriteReg(CFBP, 0x00000000)  returns 0x00 (0000ms, 0804ms total)
T1B24 001:273 JLINK_SetBPEx(Addr = 0x20000000, Type = 0xFFFFFFF2)  returns 0x00000007 (0000ms, 0804ms total)
T1B24 001:273 JLINK_Go() -- CPU_ReadMem(4 bytes @ 0xE0001000) (0005ms, 0809ms total)
T1B24 001:278 JLINK_IsHalted() -- CPU_ReadMem(2 bytes @ 0x20000000)  returns TRUE (0010ms, 0819ms total)
T1B24 001:288 JLINK_ReadReg(R15 (PC))  returns 0x20000000 (0000ms, 0809ms total)
T1B24 001:288 JLINK_ClrBPEx(BPHandle = 0x00000007)  returns 0x00 (0000ms, 0809ms total)
T1B24 001:288 JLINK_ReadReg(R0)  returns 0x00000000 (0000ms, 0809ms total)
T1B24 001:355 JLINK_WriteMem(0x20000000, 0x0180 Bytes, ...) - Data: 00 BE 0A E0 0D 78 2D 06 68 40 08 24 40 00 00 D3 ... -- CPU_WriteMem(384 bytes @ 0x20000000)  returns 0x180 (0012ms, 0821ms total)
T1B24 001:367 JLINK_WriteReg(R0, 0x08000000)  returns 0x00 (0000ms, 0821ms total)
T1B24 001:367 JLINK_WriteReg(R1, 0x0A037A00)  returns 0x00 (0000ms, 0821ms total)
T1B24 001:367 JLINK_WriteReg(R2, 0x00000002)  returns 0x00 (0000ms, 0821ms total)
T1B24 001:367 JLINK_WriteReg(R3, 0x00000000)  returns 0x00 (0000ms, 0821ms total)
T1B24 001:367 JLINK_WriteReg(R4, 0x00000000)  returns 0x00 (0000ms, 0821ms total)
T1B24 001:367 JLINK_WriteReg(R5, 0x00000000)  returns 0x00 (0000ms, 0821ms total)
T1B24 001:367 JLINK_WriteReg(R6, 0x00000000)  returns 0x00 (0000ms, 0821ms total)
T1B24 001:367 JLINK_WriteReg(R7, 0x00000000)  returns 0x00 (0000ms, 0821ms total)
T1B24 001:367 JLINK_WriteReg(R8, 0x00000000)  returns 0x00 (0000ms, 0821ms total)
T1B24 001:367 JLINK_WriteReg(R9, 0x2000017C)  returns 0x00 (0000ms, 0821ms total)
T1B24 001:367 JLINK_WriteReg(R10, 0x00000000)  returns 0x00 (0000ms, 0821ms total)
T1B24 001:367 JLINK_WriteReg(R11, 0x00000000)  returns 0x00 (0000ms, 0821ms total)
T1B24 001:367 JLINK_WriteReg(R12, 0x00000000)  returns 0x00 (0000ms, 0821ms total)
T1B24 001:367 JLINK_WriteReg(R13 (SP), 0x20001000)  returns 0x00 (0000ms, 0821ms total)
T1B24 001:367 JLINK_WriteReg(R14, 0x20000001)  returns 0x00 (0000ms, 0821ms total)
T1B24 001:367 JLINK_WriteReg(R15 (PC), 0x20000054)  returns 0x00 (0000ms, 0821ms total)
T1B24 001:367 JLINK_WriteReg(XPSR, 0x01000000)  returns 0x00 (0000ms, 0821ms total)
T1B24 001:367 JLINK_WriteReg(MSP, 0x20001000)  returns 0x00 (0000ms, 0821ms total)
T1B24 001:367 JLINK_WriteReg(PSP, 0x20001000)  returns 0x00 (0001ms, 0822ms total)
T1B24 001:368 JLINK_WriteReg(CFBP, 0x00000000)  returns 0x00 (0000ms, 0822ms total)
T1B24 001:368 JLINK_SetBPEx(Addr = 0x20000000, Type = 0xFFFFFFF2) -- CPU_ReadMem(2 bytes @ 0x20000000)  returns 0x00000008 (0001ms, 0823ms total)
T1B24 001:369 JLINK_Go() -- CPU_WriteMem(2 bytes @ 0x20000000) -- CPU_ReadMem(4 bytes @ 0xE0001000) (0005ms, 0828ms total)
T1B24 001:374 JLINK_IsHalted() -- CPU_ReadMem(2 bytes @ 0x20000000)  returns TRUE (0009ms, 0837ms total)
T1B24 001:383 JLINK_ReadReg(R15 (PC))  returns 0x20000000 (0000ms, 0828ms total)
T1B24 001:383 JLINK_ClrBPEx(BPHandle = 0x00000008)  returns 0x00 (0000ms, 0828ms total)
T1B24 001:383 JLINK_ReadReg(R0)  returns 0x00000000 (0000ms, 0828ms total)
T1B24 001:384 JLINK_WriteMem(0x20000180, 0x0400 Bytes, ...) - Data: D8 91 00 20 59 02 00 08 A9 BA 00 08 C5 98 00 08 ... -- CPU_WriteMem(1024 bytes @ 0x20000180)  returns 0x400 (0030ms, 0858ms total)
T1B24 001:414 JLINK_WriteReg(R0, 0x08000000)  returns 0x00 (0000ms, 0858ms total)
T1B24 001:414 JLINK_WriteReg(R1, 0x00000400)  returns 0x00 (0000ms, 0858ms total)
T1B24 001:414 JLINK_WriteReg(R2, 0x20000180)  returns 0x00 (0000ms, 0858ms total)
T1B24 001:414 JLINK_WriteReg(R3, 0x00000000)  returns 0x00 (0000ms, 0858ms total)
T1B24 001:414 JLINK_WriteReg(R4, 0x00000000)  returns 0x00 (0000ms, 0858ms total)
T1B24 001:414 JLINK_WriteReg(R5, 0x00000000)  returns 0x00 (0000ms, 0858ms total)
T1B24 001:414 JLINK_WriteReg(R6, 0x00000000)  returns 0x00 (0000ms, 0858ms total)
T1B24 001:414 JLINK_WriteReg(R7, 0x00000000)  returns 0x00 (0000ms, 0858ms total)
T1B24 001:414 JLINK_WriteReg(R8, 0x00000000)  returns 0x00 (0000ms, 0858ms total)
T1B24 001:414 JLINK_WriteReg(R9, 0x2000017C)  returns 0x00 (0000ms, 0858ms total)
T1B24 001:414 JLINK_WriteReg(R10, 0x00000000)  returns 0x00 (0000ms, 0858ms total)
T1B24 001:414 JLINK_WriteReg(R11, 0x00000000)  returns 0x00 (0000ms, 0858ms total)
T1B24 001:414 JLINK_WriteReg(R12, 0x00000000)  returns 0x00 (0000ms, 0858ms total)
T1B24 001:414 JLINK_WriteReg(R13 (SP), 0x20001000)  returns 0x00 (0000ms, 0858ms total)
T1B24 001:414 JLINK_WriteReg(R14, 0x20000001)  returns 0x00 (0000ms, 0858ms total)
T1B24 001:414 JLINK_WriteReg(R15 (PC), 0x20000108)  returns 0x00 (0001ms, 0859ms total)
T1B24 001:415 JLINK_WriteReg(XPSR, 0x01000000)  returns 0x00 (0000ms, 0859ms total)
T1B24 001:415 JLINK_WriteReg(MSP, 0x20001000)  returns 0x00 (0000ms, 0859ms total)
T1B24 001:415 JLINK_WriteReg(PSP, 0x20001000)  returns 0x00 (0000ms, 0859ms total)
T1B24 001:415 JLINK_WriteReg(CFBP, 0x00000000)  returns 0x00 (0000ms, 0859ms total)
T1B24 001:415 JLINK_SetBPEx(Addr = 0x20000000, Type = 0xFFFFFFF2)  returns 0x00000009 (0000ms, 0859ms total)
T1B24 001:415 JLINK_Go() -- CPU_ReadMem(4 bytes @ 0xE0001000) (0004ms, 0863ms total)
T1B24 001:419 JLINK_IsHalted()  returns FALSE (0002ms, 0865ms total)
T1B24 001:427 JLINK_IsHalted() -- CPU_ReadMem(2 bytes @ 0x20000000)  returns TRUE (0009ms, 0872ms total)
T1B24 001:436 JLINK_ReadReg(R15 (PC))  returns 0x20000000 (0000ms, 0863ms total)
T1B24 001:436 JLINK_ClrBPEx(BPHandle = 0x00000009)  returns 0x00 (0000ms, 0863ms total)
T1B24 001:436 JLINK_ReadReg(R0)  returns 0x00000000 (0000ms, 0863ms total)
T1B24 001:437 JLINK_WriteMem(0x20000180, 0x0400 Bytes, ...) - Data: 47 EB 03 01 40 EA D5 70 B6 19 6D 41 11 E0 6D 08 ... -- CPU_WriteMem(1024 bytes @ 0x20000180)  returns 0x400 (0031ms, 0894ms total)
T1B24 001:468 JLINK_WriteReg(R0, 0x08000400)  returns 0x00 (0000ms, 0894ms total)
T1B24 001:468 JLINK_WriteReg(R1, 0x00000400)  returns 0x00 (0000ms, 0894ms total)
T1B24 001:468 JLINK_WriteReg(R2, 0x20000180)  returns 0x00 (0000ms, 0894ms total)
T1B24 001:468 JLINK_WriteReg(R3, 0x00000000)  returns 0x00 (0000ms, 0894ms total)
T1B24 001:468 JLINK_WriteReg(R4, 0x00000000)  returns 0x00 (0000ms, 0894ms total)
T1B24 001:468 JLINK_WriteReg(R5, 0x00000000)  returns 0x00 (0000ms, 0894ms total)
T1B24 001:468 JLINK_WriteReg(R6, 0x00000000)  returns 0x00 (0000ms, 0894ms total)
T1B24 001:468 JLINK_WriteReg(R7, 0x00000000)  returns 0x00 (0000ms, 0894ms total)
T1B24 001:468 JLINK_WriteReg(R8, 0x00000000)  returns 0x00 (0000ms, 0894ms total)
T1B24 001:468 JLINK_WriteReg(R9, 0x2000017C)  returns 0x00 (0000ms, 0894ms total)
T1B24 001:468 JLINK_WriteReg(R10, 0x00000000)  returns 0x00 (0000ms, 0894ms total)
T1B24 001:468 JLINK_WriteReg(R11, 0x00000000)  returns 0x00 (0000ms, 0894ms total)
T1B24 001:468 JLINK_WriteReg(R12, 0x00000000)  returns 0x00 (0000ms, 0894ms total)
T1B24 001:468 JLINK_WriteReg(R13 (SP), 0x20001000)  returns 0x00 (0000ms, 0894ms total)
T1B24 001:468 JLINK_WriteReg(R14, 0x20000001)  returns 0x00 (0000ms, 0894ms total)
T1B24 001:468 JLINK_WriteReg(R15 (PC), 0x20000108)  returns 0x00 (0000ms, 0894ms total)
T1B24 001:468 JLINK_WriteReg(XPSR, 0x01000000)  returns 0x00 (0000ms, 0894ms total)
T1B24 001:468 JLINK_WriteReg(MSP, 0x20001000)  returns 0x00 (0000ms, 0894ms total)
T1B24 001:468 JLINK_WriteReg(PSP, 0x20001000)  returns 0x00 (0000ms, 0894ms total)
T1B24 001:468 JLINK_WriteReg(CFBP, 0x00000000)  returns 0x00 (0000ms, 0894ms total)
T1B24 001:468 JLINK_SetBPEx(Addr = 0x20000000, Type = 0xFFFFFFF2)  returns 0x0000000A (0000ms, 0894ms total)
T1B24 001:468 JLINK_Go() -- CPU_ReadMem(4 bytes @ 0xE0001000) (0005ms, 0899ms total)
T1B24 001:473 JLINK_IsHalted()  returns FALSE (0001ms, 0900ms total)
T1B24 001:478 JLINK_IsHalted() -- CPU_ReadMem(2 bytes @ 0x20000000)  returns TRUE (0009ms, 0908ms total)
T1B24 001:487 JLINK_ReadReg(R15 (PC))  returns 0x20000000 (0000ms, 0899ms total)
T1B24 001:487 JLINK_ClrBPEx(BPHandle = 0x0000000A)  returns 0x00 (0000ms, 0899ms total)
T1B24 001:487 JLINK_ReadReg(R0)  returns 0x00000000 (0000ms, 0899ms total)
T1B24 001:488 JLINK_WriteMem(0x20000180, 0x0400 Bytes, ...) - Data: 4F EA 00 61 4F EA 10 20 42 BF 00 20 10 BC 70 47 ... -- CPU_WriteMem(1024 bytes @ 0x20000180)  returns 0x400 (0031ms, 0930ms total)
T1B24 001:519 JLINK_WriteReg(R0, 0x08000800)  returns 0x00 (0000ms, 0930ms total)
T1B24 001:519 JLINK_WriteReg(R1, 0x00000400)  returns 0x00 (0000ms, 0930ms total)
T1B24 001:519 JLINK_WriteReg(R2, 0x20000180)  returns 0x00 (0000ms, 0930ms total)
T1B24 001:519 JLINK_WriteReg(R3, 0x00000000)  returns 0x00 (0000ms, 0930ms total)
T1B24 001:519 JLINK_WriteReg(R4, 0x00000000)  returns 0x00 (0000ms, 0930ms total)
T1B24 001:519 JLINK_WriteReg(R5, 0x00000000)  returns 0x00 (0000ms, 0930ms total)
T1B24 001:519 JLINK_WriteReg(R6, 0x00000000)  returns 0x00 (0000ms, 0930ms total)
T1B24 001:519 JLINK_WriteReg(R7, 0x00000000)  returns 0x00 (0000ms, 0930ms total)
T1B24 001:519 JLINK_WriteReg(R8, 0x00000000)  returns 0x00 (0000ms, 0930ms total)
T1B24 001:519 JLINK_WriteReg(R9, 0x2000017C)  returns 0x00 (0000ms, 0930ms total)
T1B24 001:519 JLINK_WriteReg(R10, 0x00000000)  returns 0x00 (0000ms, 0930ms total)
T1B24 001:519 JLINK_WriteReg(R11, 0x00000000)  returns 0x00 (0000ms, 0930ms total)
T1B24 001:519 JLINK_WriteReg(R12, 0x00000000)  returns 0x00 (0000ms, 0930ms total)
T1B24 001:519 JLINK_WriteReg(R13 (SP), 0x20001000)  returns 0x00 (0000ms, 0930ms total)
T1B24 001:519 JLINK_WriteReg(R14, 0x20000001)  returns 0x00 (0000ms, 0930ms total)
T1B24 001:519 JLINK_WriteReg(R15 (PC), 0x20000108)  returns 0x00 (0000ms, 0930ms total)
T1B24 001:519 JLINK_WriteReg(XPSR, 0x01000000)  returns 0x00 (0000ms, 0930ms total)
T1B24 001:519 JLINK_WriteReg(MSP, 0x20001000)  returns 0x00 (0000ms, 0930ms total)
T1B24 001:519 JLINK_WriteReg(PSP, 0x20001000)  returns 0x00 (0000ms, 0930ms total)
T1B24 001:519 JLINK_WriteReg(CFBP, 0x00000000)  returns 0x00 (0001ms, 0931ms total)
T1B24 001:520 JLINK_SetBPEx(Addr = 0x20000000, Type = 0xFFFFFFF2)  returns 0x0000000B (0000ms, 0931ms total)
T1B24 001:520 JLINK_Go() -- CPU_ReadMem(4 bytes @ 0xE0001000) (0005ms, 0936ms total)
T1B24 001:525 JLINK_IsHalted()  returns FALSE (0001ms, 0937ms total)
T1B24 001:530 JLINK_IsHalted() -- CPU_ReadMem(2 bytes @ 0x20000000)  returns TRUE (0009ms, 0945ms total)
T1B24 001:539 JLINK_ReadReg(R15 (PC))  returns 0x20000000 (0000ms, 0936ms total)
T1B24 001:539 JLINK_ClrBPEx(BPHandle = 0x0000000B)  returns 0x00 (0000ms, 0936ms total)
T1B24 001:539 JLINK_ReadReg(R0)  returns 0x00000000 (0000ms, 0936ms total)
T1B24 001:540 JLINK_WriteMem(0x20000180, 0x0400 Bytes, ...) - Data: 10 2B FF F7 34 FC 41 EC 19 0B 9F ED 6D 0B 53 EC ... -- CPU_WriteMem(1024 bytes @ 0x20000180)  returns 0x400 (0031ms, 0967ms total)
T1B24 001:572 JLINK_WriteReg(R0, 0x08000C00)  returns 0x00 (0000ms, 0967ms total)
T1B24 001:572 JLINK_WriteReg(R1, 0x00000400)  returns 0x00 (0000ms, 0967ms total)
T1B24 001:572 JLINK_WriteReg(R2, 0x20000180)  returns 0x00 (0000ms, 0967ms total)
T1B24 001:572 JLINK_WriteReg(R3, 0x00000000)  returns 0x00 (0000ms, 0967ms total)
T1B24 001:572 JLINK_WriteReg(R4, 0x00000000)  returns 0x00 (0000ms, 0967ms total)
T1B24 001:572 JLINK_WriteReg(R5, 0x00000000)  returns 0x00 (0000ms, 0967ms total)
T1B24 001:572 JLINK_WriteReg(R6, 0x00000000)  returns 0x00 (0000ms, 0967ms total)
T1B24 001:572 JLINK_WriteReg(R7, 0x00000000)  returns 0x00 (0000ms, 0967ms total)
T1B24 001:572 JLINK_WriteReg(R8, 0x00000000)  returns 0x00 (0000ms, 0967ms total)
T1B24 001:572 JLINK_WriteReg(R9, 0x2000017C)  returns 0x00 (0000ms, 0967ms total)
T1B24 001:572 JLINK_WriteReg(R10, 0x00000000)  returns 0x00 (0000ms, 0967ms total)
T1B24 001:572 JLINK_WriteReg(R11, 0x00000000)  returns 0x00 (0000ms, 0967ms total)
T1B24 001:572 JLINK_WriteReg(R12, 0x00000000)  returns 0x00 (0000ms, 0967ms total)
T1B24 001:572 JLINK_WriteReg(R13 (SP), 0x20001000)  returns 0x00 (0000ms, 0967ms total)
T1B24 001:572 JLINK_WriteReg(R14, 0x20000001)  returns 0x00 (0000ms, 0967ms total)
T1B24 001:572 JLINK_WriteReg(R15 (PC), 0x20000108)  returns 0x00 (0000ms, 0967ms total)
T1B24 001:572 JLINK_WriteReg(XPSR, 0x01000000)  returns 0x00 (0000ms, 0967ms total)
T1B24 001:572 JLINK_WriteReg(MSP, 0x20001000)  returns 0x00 (0000ms, 0967ms total)
T1B24 001:572 JLINK_WriteReg(PSP, 0x20001000)  returns 0x00 (0000ms, 0967ms total)
T1B24 001:572 JLINK_WriteReg(CFBP, 0x00000000)  returns 0x00 (0000ms, 0967ms total)
T1B24 001:572 JLINK_SetBPEx(Addr = 0x20000000, Type = 0xFFFFFFF2)  returns 0x0000000C (0000ms, 0967ms total)
T1B24 001:572 JLINK_Go() -- CPU_ReadMem(4 bytes @ 0xE0001000) (0005ms, 0972ms total)
T1B24 001:577 JLINK_IsHalted()  returns FALSE (0001ms, 0973ms total)
T1B24 001:586 JLINK_IsHalted() -- CPU_ReadMem(2 bytes @ 0x20000000)  returns TRUE (0009ms, 0981ms total)
T1B24 001:595 JLINK_ReadReg(R15 (PC))  returns 0x20000000 (0000ms, 0972ms total)
T1B24 001:595 JLINK_ClrBPEx(BPHandle = 0x0000000C)  returns 0x00 (0000ms, 0972ms total)
T1B24 001:595 JLINK_ReadReg(R0)  returns 0x00000000 (0000ms, 0972ms total)
T1B24 001:596 JLINK_WriteMem(0x20000180, 0x0400 Bytes, ...) - Data: 02 90 27 48 03 90 09 20 05 90 69 46 22 48 04 F0 ... -- CPU_WriteMem(1024 bytes @ 0x20000180)  returns 0x400 (0031ms, 1003ms total)
T1B24 001:627 JLINK_WriteReg(R0, 0x08001000)  returns 0x00 (0000ms, 1003ms total)
T1B24 001:627 JLINK_WriteReg(R1, 0x00000400)  returns 0x00 (0000ms, 1003ms total)
T1B24 001:627 JLINK_WriteReg(R2, 0x20000180)  returns 0x00 (0000ms, 1003ms total)
T1B24 001:627 JLINK_WriteReg(R3, 0x00000000)  returns 0x00 (0000ms, 1003ms total)
T1B24 001:627 JLINK_WriteReg(R4, 0x00000000)  returns 0x00 (0000ms, 1003ms total)
T1B24 001:627 JLINK_WriteReg(R5, 0x00000000)  returns 0x00 (0000ms, 1003ms total)
T1B24 001:627 JLINK_WriteReg(R6, 0x00000000)  returns 0x00 (0000ms, 1003ms total)
T1B24 001:627 JLINK_WriteReg(R7, 0x00000000)  returns 0x00 (0000ms, 1003ms total)
T1B24 001:627 JLINK_WriteReg(R8, 0x00000000)  returns 0x00 (0000ms, 1003ms total)
T1B24 001:627 JLINK_WriteReg(R9, 0x2000017C)  returns 0x00 (0000ms, 1003ms total)
T1B24 001:627 JLINK_WriteReg(R10, 0x00000000)  returns 0x00 (0000ms, 1003ms total)
T1B24 001:627 JLINK_WriteReg(R11, 0x00000000)  returns 0x00 (0000ms, 1003ms total)
T1B24 001:627 JLINK_WriteReg(R12, 0x00000000)  returns 0x00 (0000ms, 1003ms total)
T1B24 001:627 JLINK_WriteReg(R13 (SP), 0x20001000)  returns 0x00 (0000ms, 1003ms total)
T1B24 001:627 JLINK_WriteReg(R14, 0x20000001)  returns 0x00 (0000ms, 1003ms total)
T1B24 001:627 JLINK_WriteReg(R15 (PC), 0x20000108)  returns 0x00 (0000ms, 1003ms total)
T1B24 001:627 JLINK_WriteReg(XPSR, 0x01000000)  returns 0x00 (0000ms, 1003ms total)
T1B24 001:628 JLINK_WriteReg(MSP, 0x20001000)  returns 0x00 (0000ms, 1003ms total)
T1B24 001:628 JLINK_WriteReg(PSP, 0x20001000)  returns 0x00 (0000ms, 1003ms total)
T1B24 001:628 JLINK_WriteReg(CFBP, 0x00000000)  returns 0x00 (0000ms, 1003ms total)
T1B24 001:628 JLINK_SetBPEx(Addr = 0x20000000, Type = 0xFFFFFFF2)  returns 0x0000000D (0000ms, 1003ms total)
T1B24 001:628 JLINK_Go() -- CPU_ReadMem(4 bytes @ 0xE0001000) (0004ms, 1007ms total)
T1B24 001:632 JLINK_IsHalted()  returns FALSE (0001ms, 1008ms total)
T1B24 001:637 JLINK_IsHalted() -- CPU_ReadMem(2 bytes @ 0x20000000)  returns TRUE (0009ms, 1016ms total)
T1B24 001:646 JLINK_ReadReg(R15 (PC))  returns 0x20000000 (0000ms, 1007ms total)
T1B24 001:646 JLINK_ClrBPEx(BPHandle = 0x0000000D)  returns 0x00 (0000ms, 1007ms total)
T1B24 001:646 JLINK_ReadReg(R0)  returns 0x00000000 (0000ms, 1007ms total)
T1B24 001:647 JLINK_WriteMem(0x20000180, 0x0400 Bytes, ...) - Data: 91 F9 00 EE 10 0A 10 48 80 ED 01 0A E0 78 0E 49 ... -- CPU_WriteMem(1024 bytes @ 0x20000180)  returns 0x400 (0032ms, 1039ms total)
T1B24 001:679 JLINK_WriteReg(R0, 0x08001400)  returns 0x00 (0000ms, 1039ms total)
T1B24 001:679 JLINK_WriteReg(R1, 0x00000400)  returns 0x00 (0000ms, 1039ms total)
T1B24 001:679 JLINK_WriteReg(R2, 0x20000180)  returns 0x00 (0000ms, 1039ms total)
T1B24 001:679 JLINK_WriteReg(R3, 0x00000000)  returns 0x00 (0000ms, 1039ms total)
T1B24 001:679 JLINK_WriteReg(R4, 0x00000000)  returns 0x00 (0000ms, 1039ms total)
T1B24 001:679 JLINK_WriteReg(R5, 0x00000000)  returns 0x00 (0000ms, 1039ms total)
T1B24 001:679 JLINK_WriteReg(R6, 0x00000000)  returns 0x00 (0000ms, 1039ms total)
T1B24 001:679 JLINK_WriteReg(R7, 0x00000000)  returns 0x00 (0000ms, 1039ms total)
T1B24 001:679 JLINK_WriteReg(R8, 0x00000000)  returns 0x00 (0000ms, 1039ms total)
T1B24 001:679 JLINK_WriteReg(R9, 0x2000017C)  returns 0x00 (0000ms, 1039ms total)
T1B24 001:679 JLINK_WriteReg(R10, 0x00000000)  returns 0x00 (0000ms, 1039ms total)
T1B24 001:679 JLINK_WriteReg(R11, 0x00000000)  returns 0x00 (0000ms, 1039ms total)
T1B24 001:679 JLINK_WriteReg(R12, 0x00000000)  returns 0x00 (0000ms, 1039ms total)
T1B24 001:679 JLINK_WriteReg(R13 (SP), 0x20001000)  returns 0x00 (0000ms, 1039ms total)
T1B24 001:679 JLINK_WriteReg(R14, 0x20000001)  returns 0x00 (0000ms, 1039ms total)
T1B24 001:679 JLINK_WriteReg(R15 (PC), 0x20000108)  returns 0x00 (0000ms, 1039ms total)
T1B24 001:679 JLINK_WriteReg(XPSR, 0x01000000)  returns 0x00 (0000ms, 1039ms total)
T1B24 001:679 JLINK_WriteReg(MSP, 0x20001000)  returns 0x00 (0000ms, 1039ms total)
T1B24 001:679 JLINK_WriteReg(PSP, 0x20001000)  returns 0x00 (0000ms, 1039ms total)
T1B24 001:679 JLINK_WriteReg(CFBP, 0x00000000)  returns 0x00 (0000ms, 1039ms total)
T1B24 001:680 JLINK_SetBPEx(Addr = 0x20000000, Type = 0xFFFFFFF2)  returns 0x0000000E (0000ms, 1040ms total)
T1B24 001:680 JLINK_Go() -- CPU_ReadMem(4 bytes @ 0xE0001000) (0004ms, 1044ms total)
T1B24 001:684 JLINK_IsHalted()  returns FALSE (0001ms, 1045ms total)
T1B24 001:687 JLINK_IsHalted()  returns FALSE (0001ms, 1045ms total)
T1B24 001:690 JLINK_IsHalted() -- CPU_ReadMem(2 bytes @ 0x20000000)  returns TRUE (0009ms, 1053ms total)
T1B24 001:699 JLINK_ReadReg(R15 (PC))  returns 0x20000000 (0000ms, 1044ms total)
T1B24 001:699 JLINK_ClrBPEx(BPHandle = 0x0000000E)  returns 0x00 (0000ms, 1044ms total)
T1B24 001:699 JLINK_ReadReg(R0)  returns 0x00000000 (0000ms, 1044ms total)
T1B24 001:700 JLINK_WriteMem(0x20000180, 0x0400 Bytes, ...) - Data: 19 0B 9F ED 13 0B 53 EC 10 2B FE F7 2A FE 41 EC ... -- CPU_WriteMem(1024 bytes @ 0x20000180)  returns 0x400 (0032ms, 1076ms total)
T1B24 001:732 JLINK_WriteReg(R0, 0x08001800)  returns 0x00 (0000ms, 1076ms total)
T1B24 001:732 JLINK_WriteReg(R1, 0x00000400)  returns 0x00 (0000ms, 1076ms total)
T1B24 001:732 JLINK_WriteReg(R2, 0x20000180)  returns 0x00 (0000ms, 1076ms total)
T1B24 001:732 JLINK_WriteReg(R3, 0x00000000)  returns 0x00 (0000ms, 1076ms total)
T1B24 001:732 JLINK_WriteReg(R4, 0x00000000)  returns 0x00 (0000ms, 1076ms total)
T1B24 001:732 JLINK_WriteReg(R5, 0x00000000)  returns 0x00 (0001ms, 1077ms total)
T1B24 001:733 JLINK_WriteReg(R6, 0x00000000)  returns 0x00 (0000ms, 1077ms total)
T1B24 001:733 JLINK_WriteReg(R7, 0x00000000)  returns 0x00 (0000ms, 1077ms total)
T1B24 001:733 JLINK_WriteReg(R8, 0x00000000)  returns 0x00 (0000ms, 1077ms total)
T1B24 001:733 JLINK_WriteReg(R9, 0x2000017C)  returns 0x00 (0000ms, 1077ms total)
T1B24 001:733 JLINK_WriteReg(R10, 0x00000000)  returns 0x00 (0000ms, 1077ms total)
T1B24 001:733 JLINK_WriteReg(R11, 0x00000000)  returns 0x00 (0000ms, 1077ms total)
T1B24 001:733 JLINK_WriteReg(R12, 0x00000000)  returns 0x00 (0000ms, 1077ms total)
T1B24 001:733 JLINK_WriteReg(R13 (SP), 0x20001000)  returns 0x00 (0000ms, 1077ms total)
T1B24 001:733 JLINK_WriteReg(R14, 0x20000001)  returns 0x00 (0000ms, 1077ms total)
T1B24 001:733 JLINK_WriteReg(R15 (PC), 0x20000108)  returns 0x00 (0000ms, 1077ms total)
T1B24 001:733 JLINK_WriteReg(XPSR, 0x01000000)  returns 0x00 (0000ms, 1077ms total)
T1B24 001:733 JLINK_WriteReg(MSP, 0x20001000)  returns 0x00 (0000ms, 1077ms total)
T1B24 001:733 JLINK_WriteReg(PSP, 0x20001000)  returns 0x00 (0000ms, 1077ms total)
T1B24 001:733 JLINK_WriteReg(CFBP, 0x00000000)  returns 0x00 (0000ms, 1077ms total)
T1B24 001:733 JLINK_SetBPEx(Addr = 0x20000000, Type = 0xFFFFFFF2)  returns 0x0000000F (0000ms, 1077ms total)
T1B24 001:733 JLINK_Go() -- CPU_ReadMem(4 bytes @ 0xE0001000) (0005ms, 1082ms total)
T1B24 001:738 JLINK_IsHalted()  returns FALSE (0001ms, 1083ms total)
T1B24 001:743 JLINK_IsHalted() -- CPU_ReadMem(2 bytes @ 0x20000000)  returns TRUE (0009ms, 1091ms total)
T1B24 001:752 JLINK_ReadReg(R15 (PC))  returns 0x20000000 (0000ms, 1082ms total)
T1B24 001:752 JLINK_ClrBPEx(BPHandle = 0x0000000F)  returns 0x00 (0000ms, 1082ms total)
T1B24 001:752 JLINK_ReadReg(R0)  returns 0x00000000 (0000ms, 1082ms total)
T1B24 001:753 JLINK_WriteMem(0x20000180, 0x0400 Bytes, ...) - Data: 4A 26 FF 18 4A 27 FF 18 4A 28 FF 18 4A 29 FF 18 ... -- CPU_WriteMem(1024 bytes @ 0x20000180)  returns 0x400 (0031ms, 1113ms total)
T1B24 001:784 JLINK_WriteReg(R0, 0x08001C00)  returns 0x00 (0000ms, 1113ms total)
T1B24 001:784 JLINK_WriteReg(R1, 0x00000400)  returns 0x00 (0000ms, 1113ms total)
T1B24 001:784 JLINK_WriteReg(R2, 0x20000180)  returns 0x00 (0000ms, 1113ms total)
T1B24 001:784 JLINK_WriteReg(R3, 0x00000000)  returns 0x00 (0000ms, 1113ms total)
T1B24 001:784 JLINK_WriteReg(R4, 0x00000000)  returns 0x00 (0000ms, 1113ms total)
T1B24 001:784 JLINK_WriteReg(R5, 0x00000000)  returns 0x00 (0000ms, 1113ms total)
T1B24 001:784 JLINK_WriteReg(R6, 0x00000000)  returns 0x00 (0000ms, 1113ms total)
T1B24 001:784 JLINK_WriteReg(R7, 0x00000000)  returns 0x00 (0000ms, 1113ms total)
T1B24 001:784 JLINK_WriteReg(R8, 0x00000000)  returns 0x00 (0000ms, 1113ms total)
T1B24 001:785 JLINK_WriteReg(R9, 0x2000017C)  returns 0x00 (0000ms, 1113ms total)
T1B24 001:785 JLINK_WriteReg(R10, 0x00000000)  returns 0x00 (0000ms, 1113ms total)
T1B24 001:785 JLINK_WriteReg(R11, 0x00000000)  returns 0x00 (0000ms, 1113ms total)
T1B24 001:785 JLINK_WriteReg(R12, 0x00000000)  returns 0x00 (0000ms, 1113ms total)
T1B24 001:785 JLINK_WriteReg(R13 (SP), 0x20001000)  returns 0x00 (0000ms, 1113ms total)
T1B24 001:785 JLINK_WriteReg(R14, 0x20000001)  returns 0x00 (0000ms, 1113ms total)
T1B24 001:785 JLINK_WriteReg(R15 (PC), 0x20000108)  returns 0x00 (0000ms, 1113ms total)
T1B24 001:785 JLINK_WriteReg(XPSR, 0x01000000)  returns 0x00 (0000ms, 1113ms total)
T1B24 001:785 JLINK_WriteReg(MSP, 0x20001000)  returns 0x00 (0000ms, 1113ms total)
T1B24 001:785 JLINK_WriteReg(PSP, 0x20001000)  returns 0x00 (0000ms, 1113ms total)
T1B24 001:785 JLINK_WriteReg(CFBP, 0x00000000)  returns 0x00 (0000ms, 1113ms total)
T1B24 001:785 JLINK_SetBPEx(Addr = 0x20000000, Type = 0xFFFFFFF2)  returns 0x00000010 (0000ms, 1113ms total)
T1B24 001:785 JLINK_Go() -- CPU_ReadMem(4 bytes @ 0xE0001000) (0005ms, 1118ms total)
T1B24 001:790 JLINK_IsHalted()  returns FALSE (0001ms, 1119ms total)
T1B24 001:793 JLINK_IsHalted()  returns FALSE (0001ms, 1119ms total)
T1B24 001:796 JLINK_IsHalted() -- CPU_ReadMem(2 bytes @ 0x20000000)  returns TRUE (0009ms, 1127ms total)
T1B24 001:805 JLINK_ReadReg(R15 (PC))  returns 0x20000000 (0000ms, 1118ms total)
T1B24 001:805 JLINK_ClrBPEx(BPHandle = 0x00000010)  returns 0x00 (0000ms, 1118ms total)
T1B24 001:805 JLINK_ReadReg(R0)  returns 0x00000000 (0000ms, 1118ms total)
T1B24 001:806 JLINK_WriteMem(0x20000180, 0x0400 Bytes, ...) - Data: 38 00 20 46 03 F0 B6 FE 00 20 70 BD 10 B5 04 46 ... -- CPU_WriteMem(1024 bytes @ 0x20000180)  returns 0x400 (0031ms, 1149ms total)
T1B24 001:837 JLINK_WriteReg(R0, 0x08002000)  returns 0x00 (0000ms, 1149ms total)
T1B24 001:837 JLINK_WriteReg(R1, 0x00000400)  returns 0x00 (0000ms, 1149ms total)
T1B24 001:837 JLINK_WriteReg(R2, 0x20000180)  returns 0x00 (0001ms, 1150ms total)
T1B24 001:838 JLINK_WriteReg(R3, 0x00000000)  returns 0x00 (0000ms, 1150ms total)
T1B24 001:838 JLINK_WriteReg(R4, 0x00000000)  returns 0x00 (0000ms, 1150ms total)
T1B24 001:838 JLINK_WriteReg(R5, 0x00000000)  returns 0x00 (0000ms, 1150ms total)
T1B24 001:838 JLINK_WriteReg(R6, 0x00000000)  returns 0x00 (0000ms, 1150ms total)
T1B24 001:838 JLINK_WriteReg(R7, 0x00000000)  returns 0x00 (0000ms, 1150ms total)
T1B24 001:838 JLINK_WriteReg(R8, 0x00000000)  returns 0x00 (0000ms, 1150ms total)
T1B24 001:838 JLINK_WriteReg(R9, 0x2000017C)  returns 0x00 (0000ms, 1150ms total)
T1B24 001:838 JLINK_WriteReg(R10, 0x00000000)  returns 0x00 (0000ms, 1150ms total)
T1B24 001:838 JLINK_WriteReg(R11, 0x00000000)  returns 0x00 (0000ms, 1150ms total)
T1B24 001:838 JLINK_WriteReg(R12, 0x00000000)  returns 0x00 (0000ms, 1150ms total)
T1B24 001:838 JLINK_WriteReg(R13 (SP), 0x20001000)  returns 0x00 (0000ms, 1150ms total)
